"Freq [GHz]","im(S(1,1)) []","im(S(1,2)) []","im(S(1,3)) []","im(S(1,4)) []","im(S(1,5)) []","im(S(1,6)) []","im(S(2,1)) []","im(S(2,2)) []","im(S(2,3)) []","im(S(2,4)) []","im(S(2,5)) []","im(S(2,6)) []","im(S(3,1)) []","im(S(3,2)) []","im(S(3,3)) []","im(S(3,4)) []","im(S(3,5)) []","im(S(3,6)) []","im(S(4,1)) []","im(S(4,2)) []","im(S(4,3)) []","im(S(4,4)) []","im(S(4,5)) []","im(S(4,6)) []","im(S(5,1)) []","im(S(5,2)) []","im(S(5,3)) []","im(S(5,4)) []","im(S(5,5)) []","im(S(5,6)) []","im(S(6,1)) []","im(S(6,2)) []","im(S(6,3)) []","im(S(6,4)) []","im(S(6,5)) []","im(S(6,6)) []"
25,0.64430152955706,-0.103326794461825,-6.06855709143654E-05,8.70213066639848E-05,0.097728091597889,-0.0250815833847089,-0.103326794461825,0.646450540838117,4.3196961556814E-06,-0.000101462044154821,-0.0257257893747654,0.0992024179603701,-6.06855709144331E-05,4.31969615568138E-06,0.11237278189952,-0.000168526328502581,3.71703088701383E-05,-6.47319315486229E-05,8.70213066640343E-05,-0.000101462044154882,-0.000168526328502583,0.107765987132674,7.08836413750206E-06,1.12601158031933E-05,0.0977280915978913,-0.0257257893747625,3.71703088700729E-05,7.08836413756009E-06,0.348116784405618,0.0227205742770993,-0.0250815833847077,0.0992024179603698,-6.47319315486052E-05,1.12601158031978E-05,0.022720574277093,0.344378742372067
26,0.524627383276665,0.0241922398241352,-3.87271435278234E-07,0.000262161604349234,0.08194293342348,0.305416908016919,0.024192239824133,0.525394486309905,-3.00197403300733E-05,-0.000139392283532885,0.304549579838984,0.0845338242326483,-3.87271435355619E-07,-3.00197403307563E-05,0.116938041624756,1.36756673022172E-05,-7.83901150663176E-05,4.98881856139898E-05,0.000262161604349334,-0.000139392283532939,1.36756673022699E-05,0.117851229830271,0.00131755351008378,-0.000291905220067406,0.0819429334234699,0.304549579838986,-7.83901150663963E-05,0.00131755351008987,0.505298545639027,-0.248328807696463,0.305416908016922,0.0845338242326497,4.98881856142719E-05,-0.000291905220066528,-0.248328807696433,0.503996116550999
27,0.180077371131924,0.100743199421265,-3.63230332671967E-05,0.000122465574996623,0.0311231429879905,0.125358230176468,0.100743199421255,0.182060572206238,-6.11239566362421E-06,-0.000240496570160948,0.121461195406581,0.0328362433888567,-3.63230332673146E-05,-6.11239566361474E-06,0.121606652185477,1.28667526887737E-05,3.74901130269592E-05,-6.74211187080956E-05,0.000122465574996679,-0.000240496570161195,1.28667526887761E-05,0.122612987280131,3.13713051647901E-05,-0.000334111784794152,0.0311231429879912,0.121461195406625,3.74901130274434E-05,3.13713051645952E-05,-0.20115194825356,0.0301502612824096,0.12535823017645,0.0328362433888714,-6.74211187075009E-05,-0.000334111784794316,0.030150261282422,-0.201493194506729
28,-0.179346094028843,0.28107349000934,1.27178326583225E-05,0.000359952375153604,-0.059347836981968,0.248227225315224,0.28107349000921,-0.175954989453279,-1.55692623866545E-05,0.000340735502806272,0.222259710389799,-0.0615264396894835,1.27178326584419E-05,-1.55692623869489E-05,0.126238023642013,1.39973762718466E-05,8.08896557566938E-07,1.07526733645473E-05,0.000359952375153414,0.000340735502806546,1.39973762718388E-05,0.127320121006176,-0.000261841912336564,-0.000409337570199457,-0.0593478369820907,0.222259710388938,8.08896557880528E-07,-0.000261841912337009,0.0293629295272164,0.0421671618224275,0.248227225315607,-0.0615264396897409,1.07526733643466E-05,-0.00040933757019981,0.0421671618224817,0.0295345861005564
29,0.0032531915319278,-0.180676273436779,8.39703483046104E-05,-0.000155641958637869,-0.166784468294597,-0.31130318842896,-0.180676273436769,0.00391559621508106,-8.58280561024084E-05,1.69983054933173E-06,-0.259068662657772,-0.162392281047155,8.39703483045021E-05,-8.58280561025934E-05,0.130880747539561,1.30482311277038E-05,0.000118447268693741,-9.7005480874225E-05,-0.000155641958637833,1.6998305492435E-06,1.30482311277011E-05,0.13206125550971,4.39094695601529E-05,0.000363471343801949,-0.16678446829459,-0.259068662656944,0.000118447268693707,4.39094695601929E-05,0.483957592118011,0.157452652268256,-0.311303188429478,-0.162392281047234,-9.70054808747648E-05,0.000363471343798732,0.157452652268278,0.477223006592711
30,-0.373426368059121,0.0114293885759685,-0.000188957696237851,-0.000226505849461643,-0.0285443656485745,-0.354141057340022,0.0114293885759705,-0.374290729693158,-0.000187094421885777,-0.000144989763387948,-0.353328977920728,-0.0283052605278248,-0.000188957696237843,-0.00018709442188579,0.138343220776962,0.000122332517107529,-0.000505521674065931,0.000427640846041988,-0.000226505849461652,-0.000144989763387953,0.00012233251710753,0.136822609943264,0.000275833483036942,-0.000349942867911955,-0.0285443656485759,-0.353328977920743,-0.0005055216740659,0.000275833483037043,0.577478686440504,-0.156582224406144,-0.354141057340018,-0.0283052605278286,0.000427640846041943,-0.000349942867911873,-0.15658222440614,0.577253410592078
31,-0.573540185181531,0.0499109670688797,0.0317909791723116,-0.0311185219514883,0.0470012045114296,-0.302985623118135,0.0499109670688689,-0.577792160558892,-0.0307205574538377,0.0308750230814757,-0.297807565890728,0.0432847107273684,0.0317909791723099,-0.0307205574538378,-0.471790129433239,0.0941570961790128,-0.0127876283490194,-0.00403317098320133,-0.0311185219514862,0.0308750230814698,0.0941570961790316,-0.502571818118433,-0.00044103153731706,-0.0162766272987508,0.047001204511422,-0.29780756589073,-0.0127876283490032,-0.00044103153731569,-0.0600661868781312,0.0515128460680042,-0.302985623118146,0.0432847107273618,-0.00403317098320689,-0.0162766272987535,0.051512846068019,-0.0589302853903808
32,-0.562167663052089,-0.162430714961887,-0.00342103721647052,-0.00310273854193301,-0.0928169321790489,-0.200471612263173,-0.162430714961903,-0.566982570206948,-0.0025953241568148,-0.00382402932294028,-0.200481702657936,-0.0881228772268676,-0.00342103721647054,-0.00259532415681533,0.91853927737092,0.000819612833958192,-0.00361974414742041,-0.000245544123796666,-0.00310273854192691,-0.00382402932293806,0.000819612833957953,0.916878509957969,-0.00031386752668419,-0.00311645965202137,-0.0928169321797379,-0.200481702657892,-0.00361974414741988,-0.000313867526683164,-0.0276587688085813,-0.334385560354383,-0.20047161226327,-0.0881228772248531,-0.000245544123796756,-0.00311645965202073,-0.334385560354347,-0.0342909450181451
33,-0.30837682197119,0.457726784396824,-0.000314476589540519,-0.000855756188336667,0.325520919089608,0.309670002249162,0.457726784396851,-0.314873506340326,-0.000500656694128319,-0.000197911792888978,0.30723353740522,0.318435021862131,-0.000314476589540503,-0.000500656694128196,0.150557382751103,0.000132962628946765,-0.00237589590531533,0.00118295432344901,-0.000855756188336489,-0.000197911792889014,0.00013296262894677,0.151304214368674,-0.000245839316158315,-0.00189724927023343,0.325520919089611,0.307233537405276,-0.0023758959053153,-0.000245839316158224,-0.0402463939470943,-0.40582792112355,0.309670002249217,0.31843502186213,0.00118295432344883,-0.00189724927023372,-0.405827921123583,-0.0305678683524359
34,-0.748235044993932,0.0072188013966012,-0.00015825421223946,0.000529531862572289,0.0526757945291352,0.42828266886384,0.00721880139659973,-0.748298890043639,0.000427023054360648,-0.000222856035947301,0.43089250202819,0.0526650504933173,-0.000158254212239454,0.000427023054360678,0.157914131425736,8.14152784132363E-05,-0.00123368590593597,0.000912062397663201,0.000529531862572316,-0.000222856035947263,8.14152784132417E-05,0.156178903920083,0.000803223863396118,-0.00107623562664035,0.0526757945291358,0.430892502028186,-0.00123368590593611,0.000803223863396154,0.682728311171601,-0.0391406327514328,0.428282668863839,0.0526650504933163,0.000912062397663164,-0.00107623562664042,-0.039140632751437,0.683680190045799
35,-0.881698885673404,0.0656409634206835,-0.00105160005268288,-0.00228346638909838,-0.100617801053016,0.176437797471296,0.0656409634206797,-0.881168633506955,-0.0024740196289406,-0.000873548889095769,0.173841230293136,-0.103828949103036,-0.00105160005268593,-0.00247401962893994,0.162905171117784,6.7112369441693E-05,-0.00196375131671725,-0.000367610402634049,-0.0022834663890982,-0.000873548889095464,6.71123694417034E-05,0.161114630406784,-0.000218514127617398,-0.0020074933665622,-0.100617801053048,0.173841230293109,-0.00196375131671754,-0.000218514127617717,0.243001817406219,-0.197423978909026,0.176437797471295,-0.103828949103035,-0.000367610402634301,-0.00200749336656208,-0.197423978908904,0.23978055643119
36,-0.791682732844451,0.13778171151438,-0.000384935222626337,-0.000513163255762,-0.00802730517575839,0.195762944069817,0.137781711514378,-0.796162471813723,-0.000446446108842073,-0.000257915790606581,0.191728803839529,-0.00733319994162392,-0.000384935222624766,-0.000446446108841884,0.167772668756032,5.20408462696628E-05,-0.00142592620320627,0.000868572643261767,-0.000513163255762,-0.0002579157906065,5.20408462696202E-05,0.166098603225128,0.000959663397665202,-0.000995389529920112,-0.00802730517575001,0.19172880383953,-0.00142592620320617,0.000959663397665286,-0.0980101132596991,-0.0903195563540321,0.195762944069819,-0.00733319994161998,0.000868572643261546,-0.00099538952992013,-0.0903195563540634,-0.125604088031428
37,-0.751636918170922,-0.0314607949739206,0.000134457500507399,0.000171076612046209,0.00139863944463728,0.0645762859861591,-0.0314607949739449,-0.75475931757923,8.30087438429384E-05,0.00165076967923659,0.0562610904177025,0.00167923679099324,0.000134457500507321,8.30087438450932E-05,0.179722991787909,-5.19976726211582E-05,-0.000331886881427844,0.000202658557318424,0.000171076612046561,0.00165076967923661,-5.19976726211477E-05,0.171133239588962,0.00133677535891718,-0.00264342388984843,0.0013986394446822,0.0562610904176779,-0.000331886881427937,0.00133677535891721,-0.32423284143864,0.0257495226469074,0.0645762859862448,0.00167923679099191,0.000202658557318774,-0.00264342388984832,0.0257495226469086,-0.330979363456775
38,-0.799131472156225,-0.0131374555813017,-3.09943627790753E-05,-0.000253746729292584,0.0728334468453764,-0.415852347821734,-0.0131374555812942,-0.803609898059721,-9.84575778050711E-05,-0.0013294028594046,-0.410514757131455,0.0760790261978117,-3.09943627796167E-05,-9.84575778048052E-05,0.184851667034191,-6.61844130823742E-05,-0.000240387138984051,0.000585841035278429,-0.000253746729292416,-0.00132940285940466,-6.61844130823739E-05,0.176189574472848,0.00276022233054091,-0.0025293667367733,0.0728334468453694,-0.410514757131453,-0.000240387138984235,0.00276022233054074,0.186037960279829,-0.216223493436389,-0.415852347821742,0.0760790261978174,0.000585841035281917,-0.00252936673677293,-0.216223493436392,0.189815361103423
39,0.139046827009677,-0.330167883880254,0.000314271708565909,-0.00084290905937238,0.27211924149942,0.194056706956033,-0.330167883880218,0.034232255523953,-0.000288262320216239,0.006824345995563,0.131829330585932,0.131062161438932,0.000314271708567049,-0.000288262320230962,0.190326486959525,-5.13457136903597E-05,-1.64454797804659E-05,0.000292381519999911,-0.000842909059371902,0.00682434599555762,-5.1345713690378E-05,0.181145147873507,-0.000649093086931923,-0.000367419384353627,0.272119241499516,0.131829330585937,-1.64454797807808E-05,-0.00064909308693226,0.425552456248485,-0.028415761429963,0.194056706955934,0.131062161438861,0.000292381520000044,-0.000367419384353316,-0.0284157614299566,0.422541191427271
40,-0.283247342647128,-0.13339019022179,-0.000965610947979989,0.00178003664508468,-0.11146676520594,0.204877059734113,-0.133390190221846,-0.284682338260591,0.000478233533151506,-0.00138570850563677,0.195099052372913,-0.114035834759057,-0.000965610947979703,0.000478233533151859,0.195427407339139,7.00070137817426E-06,-0.000630362269777639,0.00205059794529019,0.00178003664508512,-0.00138570850564327,7.0007013783139E-06,0.18606294358598,0.00642707810255169,-0.00563980868615374,-0.111466765205896,0.195099052372984,-0.000630362269791634,0.00642707810254829,0.078486919011867,-0.200095456559405,0.204877059734063,-0.114035834759078,0.00205059794527601,-0.00563980868615347,-0.200095456559909,0.0839447617492878
41,0.48488481136626,0.194951632481129,0.000944636433630473,-0.0121649702847149,0.0480793608307501,0.252945236637382,0.19495163248111,0.533080885814809,-0.0010399646085281,0.00738744008204113,0.263349235930258,0.0465351046035736,0.000944636433630134,-0.00103996460851204,0.201472781088422,1.61906615585509E-05,-0.000737807483181829,0.000705758017542438,-0.0121649702847154,0.0073874400820406,1.61906615585574E-05,0.190719412171856,0.0016292206335109,-0.00556391665327053,0.0480793608307409,0.26334923593027,-0.000737807483183318,0.00162922063351103,-0.165054568835441,0.0138716295145606,0.252945236637384,0.0465351046035543,0.000705758017541779,-0.00556391665327041,0.0138716295144652,-0.194180160219134
42,0.405288010466968,0.0212692560395582,0.000806207748698052,-0.00782303670188208,0.0499959019246915,0.704602461423216,0.0212692560395652,0.403292282625431,-0.000964483277946035,0.00649091947695621,0.702936886476113,0.0553543914090491,0.00080620774869723,-0.000964483277946034,0.208321598978237,7.05356202836353E-05,-0.000459416254918457,0.00120794616196309,-0.00782303670188124,0.00649091947695537,7.0535620283664E-05,0.195796558464319,0.0063895840128594,-0.00339382477906643,0.0499959019246906,0.702936886476134,-0.000459416254918242,0.00638958401285942,-0.335636469718022,0.023473943782327,0.704602461423221,0.0553543914090512,0.00120794616196272,-0.00339382477906668,0.0234739437823235,-0.324633344787845
43,0.528170337626885,0.0905412825867193,0.000288569291878743,-0.000395965470586472,0.00687889404665525,-0.167830821564555,0.0905412825867205,0.52430788250876,9.47026177188803E-05,0.00140014549132288,-0.168144854170163,0.00223693616067093,0.000288569291878346,9.47026177192893E-05,0.214065671458666,9.35533775852613E-05,-0.00024458493198292,-0.000177413429694776,-0.000395965470586878,0.00140014549132252,9.35533775852824E-05,0.200736812707509,0.00103612386557542,-0.00187786978258947,0.0068788940466568,-0.168144854170186,-0.000244584931982487,0.00103612386557504,0.493766421229448,-0.096005386609315,-0.167830821564571,0.00223693616067377,-0.000177413429695986,-0.00187786978258922,-0.0960053866093059,0.481688057276283
44,0.0314877522776912,-0.036209579542302,-0.000160969208551299,0.000548635108505246,0.0377811137609361,-0.439961255813209,-0.0362095795423056,0.0318736152364606,0.000221297615014543,-0.001875190369754,-0.437952559240399,0.0369972881213892,-0.000160969208551374,0.000221297615013952,0.2191564250835,8.86822424355794E-05,-0.000418763134364895,0.00054586151353345,0.000548635108507287,-0.00187519036975568,8.86822424355821E-05,0.206080671966958,0.00267452174136629,-0.00352053801132834,0.0377811137609539,-0.437952559240379,-0.000418763134364226,0.00267452174136725,0.306608651248817,-0.0958739473154088,-0.439961255813212,0.0369972881213424,0.000545861513532309,-0.00352053801132785,-0.0958739473154371,0.305517821642224
45,-0.338664041097566,0.205110511214552,-2.95440834149636E-06,-9.1643114749837E-05,-0.143238729263095,-0.368165094680137,0.205110511214553,-0.346071934116691,-0.000158080189711966,0.00179558858975677,-0.363250744917308,-0.142078652640877,-2.9544083397393E-06,-0.000158080189715691,0.222611937242242,0.000110299103083951,-0.000568745841178755,0.00130867665070427,-9.16431147560924E-05,0.00179558858975241,0.00011029910308386,0.211617830511681,0.00215125999043455,-0.00283284284513124,-0.143238729263056,-0.3632507449173,-0.000568745841178725,0.00215125999043984,0.0158423608212184,0.159304240980911,-0.368165094680192,-0.142078652641071,0.00130867665070118,-0.00283284284513322,0.159304240980866,0.00789129026816027
46,-0.54632583719839,0.180959551383334,-0.00038024021289927,0.00237159345478005,0.415309015887593,-0.0206850608662889,0.180959551383331,-0.543660147380843,0.000516783530465895,-0.00325334819416081,-0.00801600926067882,0.399369733045429,-0.000380240212898852,0.000516783530465582,0.231531798537203,0.000218916232561944,0.000174553818541349,-1.8586267672344E-05,0.00237159345477994,-0.00325334819416034,0.000218916232561888,0.216782661460877,-0.000604431454498317,-0.00566460933779453,0.415309015887477,-0.00801600926069523,0.000174553818540458,-0.000604431454498989,-0.171358536395181,0.14443332363447,-0.0206850608663162,0.399369733045401,-1.85862676672435E-05,-0.00566460933779614,0.144433323634349,-0.203865414856918
47,-0.782504283896094,-0.0579832479520796,0.000319360897963559,0.00020712583473746,-0.197510532021394,0.127494248673851,-0.0579832479520585,-0.785200033012497,-0.000355650971868618,-0.00020157868437651,0.124633144118133,-0.193341041565781,0.000319360897960684,-0.000355650971868781,0.227210495140338,-0.00440940023395045,0.000316088705802529,0.000343551132784304,0.000207125834735033,-0.000201578684358349,-0.00440940023394946,0.261285524263598,-0.000490616048515909,-0.000524637690165574,-0.197510532021416,0.124633144118131,0.000316088705803066,-0.000490616048517371,0.0890573508093266,0.133819193731935,0.127494248673824,-0.193341041565786,0.000343551132782451,-0.000524637690167503,0.133819193731935,0.0853553998370844
48,-0.873969489986429,-0.245530710736088,-0.000613984577940634,-0.000795239411029842,-0.0152822010653501,0.107938473076254,-0.245530710736069,-0.878655449674026,-0.000818037483301935,-0.000796188326805196,0.112423967169724,-0.0191739513993776,-0.000613984577940811,-0.000818037483302216,0.237594596606141,0.00127285575720458,0.00761627399331672,-0.00255179777723213,-0.000795239411030835,-0.000796188326802799,0.00127285575720558,0.260342696285675,-0.00662885576411534,-0.00296103796637465,-0.0152822010653515,0.112423967169741,0.00761627399329268,-0.00662885576406833,-0.0388875576774956,-0.337136284672248,0.107938473076258,-0.0191739513993773,-0.00255179777721812,-0.00296103796626726,-0.337136284672278,-0.273479581985221
49,-0.834941779938655,-0.0129055444749277,-0.000401362484082593,0.000369936288528649,-0.0759619257163297,0.0290251623681651,-0.0129055444749259,-0.837734621639389,-0.00015361399253474,7.32993415854106E-05,0.0324048740714007,-0.0764599566831293,-0.000401362484082508,-0.000153613992535061,0.246439501575628,0.00120816144788963,0.000166873960252967,0.000301955247395667,0.000369936288527322,7.3299341584811E-05,0.00120816144788978,0.285288665020187,-0.000703136482944753,-0.000548931556895661,-0.0759619257163352,0.0324048740714029,0.000166873960254083,-0.000703136482943698,0.111878276276575,-0.0273757892877822,0.0290251623681597,-0.0764599566831427,0.000301955247395235,-0.000548931556886512,-0.0273757892878009,0.109147210563064
50,-0.637006474276583,-0.222884325891004,0.00232903723495525,-0.00251582516371775,0.0208472843314874,-0.00520646642403925,-0.222884325891111,-0.627707391916513,-0.00134175657252259,-8.15242304048117E-05,-0.00922349025181948,0.0274248757531104,0.00232903723487503,-0.00134175657252389,0.241263802044392,-0.00890649708372666,-0.00105302373986294,-0.000983244821109812,-0.00251582516373035,-8.15242304439826E-05,-0.00890649708372642,0.279243889020707,0.000574944498775462,0.000614568224854831,0.0208472843314923,-0.00922349025181787,-0.00105302373985644,0.000574944498766359,-0.355109991773204,-0.255072146179927,-0.00520646642406403,0.0274248757530206,-0.000983244821092503,0.000614568224859039,-0.25507214617995,-0.349220459745619
