"Freq [GHz]","re(S(1,1)) []","re(S(1,2)) []","re(S(1,3)) []","re(S(1,4)) []","re(S(1,5)) []","re(S(1,6)) []","re(S(2,1)) []","re(S(2,2)) []","re(S(2,3)) []","re(S(2,4)) []","re(S(2,5)) []","re(S(2,6)) []","re(S(3,1)) []","re(S(3,2)) []","re(S(3,3)) []","re(S(3,4)) []","re(S(3,5)) []","re(S(3,6)) []","re(S(4,1)) []","re(S(4,2)) []","re(S(4,3)) []","re(S(4,4)) []","re(S(4,5)) []","re(S(4,6)) []","re(S(5,1)) []","re(S(5,2)) []","re(S(5,3)) []","re(S(5,4)) []","re(S(5,5)) []","re(S(5,6)) []","re(S(6,1)) []","re(S(6,2)) []","re(S(6,3)) []","re(S(6,4)) []","re(S(6,5)) []","re(S(6,6)) []"
25,-0.527749329458161,-0.0713997893011341,3.73349964494236E-05,0.000109608879832966,-0.40513218469798,-0.139296394146553,-0.0713997893011347,-0.525795290619293,-2.83544158197282E-05,-8.11883458689559E-05,-0.135811691009482,-0.404715408736305,3.73349964494412E-05,-2.83544158197415E-05,-0.990179177037541,-4.56278500931364E-05,-0.000102637538541355,1.51570494563148E-05,0.000109608879832942,-8.11883458689373E-05,-4.56278500931368E-05,-0.990617287877165,-0.000129085411179238,0.000190074144502532,-0.40513218469799,-0.135811691009479,-0.000102637538541224,-0.000129085411179346,0.742134338620295,-0.00733916788312983,-0.139296394146556,-0.404715408736302,1.51570494562708E-05,0.00019007414450265,-0.0073391678831267,0.743039785187447
26,0.725412817613405,-0.0653862950905054,-6.48019267147841E-05,-0.000100581235739128,-0.0638761184970553,-0.277337939642147,-0.0653862950905057,0.724802599897752,0.000120685861846195,0.000218227851635242,-0.275613132111739,-0.0645550820205666,-6.48019267148053E-05,0.000120685861845875,-0.989610850351264,6.46733362121992E-06,1.78077680382194E-05,-9.33874551356562E-05,-0.000100581235738965,0.000218227851635425,6.46733362132775E-06,-0.990033727576933,-0.00146476766014367,0.000857476228240321,-0.0638761184970491,-0.275613132111729,1.78077680383084E-05,-0.00146476766014357,0.312655202237546,0.532356736379931,-0.277337939642149,-0.0645550820205836,-9.33874551356148E-05,0.000857476228240365,0.532356736379925,0.311554767275831
27,0.719516217389855,-0.202004610886455,-1.67308025051559E-05,-0.000200528304904673,0.00832292499110045,-0.0924213970656664,-0.202004610886444,0.722929350979624,-3.29718586029844E-05,-6.17795628388164E-05,-0.0956626802755655,0.00944762178128287,-1.67308025050625E-05,-3.29718586032159E-05,-0.988938650153588,-4.18506729661848E-06,6.33161012533519E-05,-2.92599944542175E-05,-0.000200528304904675,-6.17795628390539E-05,-4.1850672966236E-06,-0.989486231836245,-0.000378430988543569,0.00101031970020725,0.00832292499109527,-0.0956626802755085,6.33161012528981E-05,-0.000378430988543394,0.261665305275896,0.413046576788425,-0.0924213970656853,0.00944762178127517,-2.92599944545032E-05,0.00101031970020724,0.413046576788402,0.262061952769633
28,0.196232250928598,-0.0671160769514732,-8.25805230715643E-06,8.15092687042944E-05,0.149974546112714,0.398384260301805,-0.0671160769516251,0.194110203352852,-3.95115253848447E-05,-0.000188742204068388,0.469867052900246,0.08813273532634,-8.25805230754428E-06,-3.95115253847595E-05,-0.988266768787955,-2.90089847180517E-06,-2.28220713623217E-07,1.89209324469469E-06,8.15092687043252E-05,-0.000188742204068036,-2.90089847180493E-06,-0.988781637740587,-0.000305486793970513,0.000777966318680043,0.149974546112858,0.469867052900962,-2.282207137849E-07,-0.000305486793970781,-0.127915764217609,-0.11687189339149,0.398384260301705,0.0881327353265354,1.89209324500995E-06,0.000777966318680298,-0.116871893391476,-0.124439197415425
29,0.783880052540214,-0.00250784273548979,3.21300710149615E-05,-0.00022917981667817,-0.0726362432062981,-0.314302006103214,-0.00250784273549542,0.787070388619555,-3.23193451208217E-05,-1.49901812125254E-05,-0.39606148941152,-0.0792283864733498,3.21300710147927E-05,-3.23193451208423E-05,-0.987586474991266,-1.84244311959786E-06,-0.000154435503198979,1.3567256969448E-06,-0.000229179816678121,-1.49901812125777E-05,-1.84244311959851E-06,-0.988071547397039,-0.00083945707356275,0.00321480161168771,-0.0726362432062923,-0.39606148941164,-0.00015443550319836,-0.000839457073562803,0.529014621702391,0.375095029612077,-0.314302006102841,-0.0792283864733669,1.35672569718091E-06,0.00321480161169128,0.375095029612207,0.533960924963997
30,0.827055207254738,0.00894743585210044,0.000187859880860466,0.000353438330636429,-0.0937568099364663,0.109813312609543,0.00894743585210001,0.827178995555806,0.000393038077970103,0.000230631183060001,0.109363468642325,-0.0935977980842421,0.00018785988086048,0.000393038077970123,-0.98702142796211,-4.50441729660317E-05,0.00121170611011918,-0.000323863263034495,0.000353438330636407,0.000230631183060004,-4.50441729660319E-05,-0.987319738062026,-0.000507951519099058,0.00138604934662237,-0.0937568099364687,0.109363468642327,0.00121170611011921,-0.00050795151909906,0.459809970993568,0.348697672350342,0.109813312609561,-0.0935977980842377,-0.000323863263034421,0.00138604934662234,0.348697672350342,0.459308262413599
31,0.701212680717892,0.073929454529352,-0.00132718495806447,-0.00338509291867292,0.0509473887530796,-0.141552327171222,0.073929454529361,0.701776408321801,-0.00364129439677716,2.65371299078901E-05,-0.139674689074378,0.0490885691538687,-0.00132718495806614,-0.00364129439677441,0.535525328838505,0.394496160972172,0.125047497570134,-0.127981184197886,-0.0033850929186727,2.65371299067729E-05,0.39449616097216,0.506044433083404,-0.128816877898445,0.124861443960274,0.050947388753075,-0.13967468907438,0.125047497570127,-0.128816877898443,0.780092849168741,0.155276545159953,-0.141552327171226,0.0490885691538606,-0.127981184197889,0.124861443960301,0.15527654515992,0.780237824662381
32,0.673727143678096,-0.162699237457905,0.00207527102076252,0.00239479836926187,-0.0903680510621713,-0.147635346351009,-0.162699237457904,0.672832414790484,0.000386883751875586,0.00298867498007347,-0.145170531482924,-0.0901725981352797,0.00207527102076244,0.00038688375187506,-0.43020952935916,0.000244611715852908,0.00209615194389602,-0.000934128600589386,0.00239479836925084,0.00298867498007327,0.000244611715852873,-0.435939119528049,-0.00210484790891398,0.00225109054630063,-0.0903680510620186,-0.145170531482926,0.00209615194389687,-0.00210484790891367,0.86089367391925,-0.0489866520003583,-0.147635346350994,-0.0901725981349118,-0.00093412860058864,0.00225109054630108,-0.0489866520003219,0.864252100650618
33,0.263326010424926,0.22280353789785,-0.00218565653191366,-0.00446649448214846,0.280638155733887,-0.0882639043307399,0.22280353789784,0.263951995913164,-0.00450817047081237,-0.0023221110506192,-0.0794445169849152,0.276772669499068,-0.0021856565319136,-0.00450817047081206,-0.987079808351572,-8.01280177843907E-05,-0.00021631874748262,-0.00294981155007222,-0.00446649448214866,-0.00232211105061898,-8.0128017784388E-05,-0.985049087831701,-0.00284648828856291,0.000131421880395492,0.2806381557339,-0.0794445169849187,-0.000216318747482626,-0.00284648828856401,0.102774009770541,0.156406333313415,-0.0882639043306524,0.276772669499083,-0.00294981155007213,0.000131421880395422,0.156406333313392,0.0924148369192532
34,0.463391129873745,-0.00488756588814324,-0.000629411667131845,0.000221314240836076,0.00549658058730234,0.0121579905287424,-0.00488756588814378,0.460360799229078,0.000226473637097064,-0.000595536052636642,0.0123943648293068,0.00617529553108898,-0.000629411667131852,0.000226473637097124,-0.983595782921021,-0.000151953345756552,0.000796970188746166,-0.000860601164132427,0.000221314240836118,-0.000595536052636639,-0.000151953345756559,-0.983965467567123,-0.00114448150490334,0.00111166463070477,0.00549658058730091,0.0123943648293051,0.000796970188746008,-0.00114448150490342,0.416961037831192,0.112918590925647,0.0121579905287443,0.00617529553109214,-0.000860601164132429,0.0011116646307043,0.112918590925643,0.422517571049014
35,0.0190308407037264,-0.0106249102509967,-0.000569776595177426,0.00049571626175397,-0.155462108382058,-0.0420630352172085,-0.0106249102510039,0.0183357589627534,0.000752680537264606,-0.000622117569678736,-0.0396570570772979,-0.153764841101552,-0.000569776595177043,0.000752680537262251,-0.982623095119696,-0.00019469296312375,0.00161017686091322,-0.000331703667590444,0.00049571626175313,-0.000622117569678728,-0.000194692963123735,-0.983013598296082,-0.000351047510940597,0.002095572687742,-0.155462108382076,-0.0396570570773476,0.00161017686091296,-0.000351047510940426,0.707434205196074,-0.167395361476584,-0.0420630352172147,-0.153764841101551,-0.000331703667590253,0.00209557268774206,-0.167395361476603,0.703704021308551
36,-0.231077656850316,-0.120355453548358,0.000495268009159627,0.000161203718433405,0.110480310913113,0.295860550938518,-0.120355453548344,-0.231309441278652,0.000105458807732226,0.000239457571872002,0.297033431188787,0.111019674908632,0.000495268009163473,0.000105458807732306,-0.98162616719073,-0.000266318125875709,0.00144377192900855,-0.000976583429719671,0.000161203718433349,0.000239457571872035,-0.000266318125875705,-0.98201632699297,-0.00112824821252406,0.0015553316099474,0.110480310913134,0.297033431188786,0.0014437719290096,-0.00112824821252409,0.600904972554161,-0.0302144978099227,0.295860550938526,0.111019674908607,-0.000976583429719667,0.0015553316099473,-0.0302144978100949,0.619136852967524
37,0.211549500578254,0.0260158524234005,-0.000176608611817391,0.000145883851236067,-0.0891169220453041,0.260974619628145,0.0260158524233922,0.213798830447126,7.52540997519875E-05,-0.00143682612085725,0.247900780592101,-0.0847984584121895,-0.000176608611817532,7.52540997503483E-05,-0.98009303155868,-2.91486088262411E-05,0.000427814094268417,-0.000136452768701459,0.000145883851236143,-0.00143682612085746,-2.91486088262412E-05,-0.980939405730307,0.000987846696760433,0.00149206039942496,-0.0891169220453106,0.24790078059208,0.000427814094267326,0.000987846696760396,0.713011603100611,0.122530455840461,0.260974619628177,-0.0847984584121944,-0.000136452768701337,0.0014920603994251,0.122530455840458,0.708957894861853
38,-0.0536787662355004,0.0110997467587294,0.000321839222190258,-0.00102701763653628,-0.0576114650999431,-0.318964093021523,0.0110997467587211,-0.0583559559416175,-8.59105419167728E-05,0.00167631480949598,-0.320806279332312,-0.0529719116734452,0.000321839222189711,-8.59105419167246E-05,-0.97870998434929,-5.85233135560914E-05,0.00070889831544119,-0.000411250111030991,-0.00102701763653635,0.00167631480949566,-5.85233135560932E-05,-0.979729316996842,-0.00279595375772806,0.00388469780644906,-0.0576114650999405,-0.3208062793323,0.000708898315441692,-0.00279595375772745,0.721889000840601,0.0825346900412028,-0.318964093021525,-0.0529719116734458,-0.00041125011103536,0.00388469780644911,0.0825346900412121,0.726273960213413
39,-0.646545957024676,-0.108287792274907,-2.33883938249509E-05,0.00290778267895183,0.29714266760659,-0.637298232404852,-0.108287792274913,-0.612972795380455,0.000538071624438171,0.000617843214752687,-0.594239583928241,0.128389548713756,-2.3388393823912E-05,0.000538071624429088,-0.977816764413592,-9.17412817800885E-05,0.000596376203818666,-0.000558498237600318,0.00290778267895167,0.000617843214752425,-9.17412817801022E-05,-0.978432366767306,-0.00500186893538223,0.0028493315368308,0.297142667607581,-0.594239583928277,0.000596376203818508,-0.005001868935382,0.497431568984016,-0.0394597792563442,-0.637298232404761,0.128389548713059,-0.000558498237599879,0.00284933153683051,-0.0394597792562789,0.495955587414457
40,-0.495102101527563,0.102222835810703,-6.98792694508762E-05,-0.000451094896878816,0.0701132832580245,-0.273517254033177,0.10222283581073,-0.516602028821691,0.000722465926650324,-0.00434665956555041,-0.282837348824254,0.0695389618379323,-6.98792694518741E-05,0.000722465926650792,-0.975852064449468,-0.00016110162802118,-0.000357296255468009,0.00155341166701894,-0.000451094896878417,-0.00434665956555185,-0.000161101628021307,-0.977080245076638,0.00586622313214524,9.92059723817504E-05,0.0701132832579811,-0.282837348824253,-0.000357296255469362,0.00586622313214907,0.522343718939655,-0.289341774276153,-0.273517254033123,0.0695389618380002,0.00155341166700245,9.92059723813829E-05,-0.289341774277057,0.517623221132088
41,0.228268054549581,-0.0678236606890636,2.09068498348989E-05,-0.00759287304913541,-0.0497083099505973,-0.298298878828307,-0.0678236606890553,0.182211980963541,-0.000259718628384799,0.000223560716777118,-0.304745533296269,-0.0472738102236752,2.09068498348981E-05,-0.000259718628380071,-0.975239793597599,-0.000144675452067347,-0.000429166211116118,0.000194605678898909,-0.00759287304913534,0.000223560716777179,-0.000144675452067347,-0.976002369971579,0.00118982996911186,-0.00457906807864578,-0.0497083099505988,-0.304745533296249,-0.000429166211117301,0.00118982996911177,0.642417920119148,0.0570935130538548,-0.298298878828305,-0.047273810223688,0.000194605678899298,-0.00457906807864632,0.0570935130539367,0.662832615952681
42,0.141268047627051,-0.0658298562099155,0.000741261770797251,-0.00440875207231837,0.0947934579133885,0.0377668029488479,-0.0658298562099243,0.146427852911617,-0.000132350323525841,0.00626599544764017,0.0342303284341067,0.0957849395517031,0.000741261770797857,-0.000132350323525453,-0.973795461039051,-6.33578901614956E-05,-0.000382751876816066,0.000235243402798441,-0.00440875207231834,0.0062659954476398,-6.33578901614971E-05,-0.975247174339964,0.00391253843579433,-0.0045184436428238,0.0947934579133904,0.0342303284341126,-0.000382751876815619,0.00391253843579445,0.210364966875381,-0.0984662099950585,0.0377668029488452,0.0957849395517045,0.000235243402797987,-0.00451844364282377,-0.0984662099950785,0.202963470750491
43,0.162528422086728,-0.0422599520583692,0.000250784548093286,-0.000122622536766083,-0.0462277156667121,0.630896776318999,-0.0422599520583652,0.168087152208669,0.000106956132448602,0.00155029314365374,0.630577474888078,-0.0430934739761313,0.000250784548093322,0.000106956132448834,-0.972270391758494,-5.56418231851986E-05,-0.000148404014011515,9.6744772519669E-05,-0.000122622536766151,0.00155029314365348,-5.56418231851939E-05,-0.974122726604912,0.00125243686929811,9.20478460065223E-05,-0.0462277156667152,0.630577474888085,-0.000148404014010656,0.00125243686929833,0.337084100199752,0.0873015550809366,0.630896776319007,-0.0430934739761287,9.67447725203708E-05,9.20478460066556E-05,0.0873015550809408,0.341556101827318
44,0.804466268977462,0.0569403432190962,0.00026251550769745,-0.00141398094493469,-0.0809129669800131,0.150782166328546,0.0569403432190951,0.811598988513348,0.000274762830045705,-0.000202243811709122,0.157954629962203,-0.0809231874198866,0.000262515507698046,0.000274762830044544,-0.970671893087795,-4.64102864207892E-05,-0.000566304347170017,-1.63703653022501E-05,-0.00141398094493465,-0.000202243811707862,-4.64102864208123E-05,-0.972806170630049,0.0063159031896612,-0.00130921229209828,-0.0809129669800098,0.157954629962199,-0.000566304347169467,0.0063159031896635,0.70417318519212,0.0969159315724022,0.150782166328544,-0.0809231874199014,-1.63703653011859E-05,-0.00130921229209902,0.096915931572381,0.701079164061423
45,0.304760517854111,0.13190680817808,-0.00195806074791133,0.00921848701477394,0.0783508705679016,0.167042933771464,0.131906808178091,0.288618544117096,0.001150973402269,-0.00913773282505477,0.153001586249255,0.0772143228278531,-0.00195806074790829,0.0011509734022702,-0.96911217905014,-0.000150904752194619,-0.00126372584300094,0.00177286642995827,0.00921848701476566,-0.00913773282506171,-0.000150904752194761,-0.971234517331337,0.0175712501474177,-0.0113883002560033,0.0783508705678612,0.153001586249284,-0.00126372584300142,0.0175712501474129,0.617887093371385,-0.245828139065911,0.167042933771525,0.0772143228278385,0.00177286642995667,-0.0113883002560038,-0.245828139065999,0.615619143322741
46,0.408929352255893,-0.144771385582605,0.000848143995815856,-0.00543691857524949,-0.17416989518631,-0.339081180422097,-0.144771385582621,0.411758521608202,-0.00127658441485605,0.00412850114732334,-0.348048273768579,-0.177847037720569,0.00084814399581338,-0.00127658441485549,-0.965036107481664,-8.45192854705825E-05,-0.000466280464122895,-0.000665363524245345,-0.00543691857524939,0.00412850114731833,-8.4519285470536E-05,-0.970190779919673,3.65076942211882E-05,0.00576243398749902,-0.174169895186378,-0.348048273768598,-0.000466280464124202,3.65076942274215E-05,0.55013854622009,0.31825634384193,-0.339081180422119,-0.177847037720262,-0.000665363524242268,0.00576243398749808,0.318256343841921,0.545796217916349
47,0.0857252123539864,-0.154871133918238,9.27930675746999E-05,5.31322057041345E-05,0.139550251296415,-0.413819686638636,-0.154871133918226,0.0806006608342005,0.000579542742860295,-0.000393418506256611,-0.416714242483938,0.133391497802935,9.27930675727207E-05,0.000579542742862325,-0.96860783493627,-0.000438250447668996,0.000171529476047826,-0.000861590390766399,5.31322057034792E-05,-0.000393418506260783,-0.000438250447672607,-0.94357145768706,-0.000203604350125064,-0.000684175743525879,0.139550251296435,-0.416714242483912,0.000171529476049094,-0.000203604350120191,0.1286630471534,0.457901803796841,-0.413819686638636,0.133391497802942,-0.00086159039076614,-0.000684175743522019,0.457901803796868,0.127627047575406
48,-0.185076439165592,-0.123919708779954,0.000618987782485363,0.00113255068417676,0.0219784173343636,0.0644918360643141,-0.123919708780037,-0.191817635042847,0.00104453602129233,0.00132855409007402,0.0646677582698341,0.0237145417665004,0.000618987782485462,0.00104453602129105,-0.968534200468794,0.000155559944881736,0.00274039289986994,0.00158064506829211,0.00113255068417636,0.00132855409007007,0.000155559944879419,-0.946545318832291,0.0081033884679207,0.00245147853705767,0.0219784173343521,0.0646677582698082,0.00274039289991104,0.00810338846797053,0.776957610802783,0.0719497440323905,0.0644918360643252,0.0237145417665013,0.00158064506830607,0.00245147853701388,0.0719497440324166,0.795706538367816
49,-0.438549847458471,0.00282323790539596,-4.17369696066097E-05,0.000349394419698162,-0.0718010160016637,0.117971788814692,0.00282323790539201,-0.435594165727906,-0.000156975003970866,0.000223962395070141,0.116104935325936,-0.0732057048498685,-4.17369696061293E-05,-0.000156975003970818,-0.964328934781648,-0.000692365180174993,0.000210648009277968,0.000218453622662297,0.000349394419698798,0.000223962395069189,-0.000692365180174764,-0.942308855560385,0.00025338608189539,0.000552832355566982,-0.0718010160016683,0.116104935325941,0.000210648009280073,0.000253386081897944,0.744001696491563,-0.0810064175323628,0.117971788814693,-0.073205704849864,0.000218453622662291,0.000552832355568566,-0.0810064175323329,0.739214556433189
50,-0.713630266448326,-0.369964533863605,-0.000598870889629894,-0.00117256118052915,-0.0149628526484828,-0.0313832987859755,-0.369964533863039,-0.716873321972118,-0.00105913331303372,-0.00393149980492766,-0.041101085879494,-0.0220935395153146,-0.000598870889699536,-0.00105913331303101,-0.959910102764723,0.00168998249593953,0.00189667373589408,-0.00336391731872036,-0.00117256118051437,-0.00393149980490779,0.00168998249593872,-0.933431713960814,0.000141027722601121,-0.00233424091252153,-0.0149628526484914,-0.0411010858795027,0.00189667373588917,0.000141027722603363,0.65307541839229,0.350277920695782,-0.0313832987859548,-0.0220935395152661,-0.00336391731871414,-0.0023342409125188,0.350277920695842,0.668097992524306
